#   Hz   S  RI   R   50
!
0.0 -0.0012683969894235398 -0.0 0.9943142510344752 -0.0 0.9944307619041024 -0.0 -0.00013486660698114892 -0.0
5000000.0 -0.0004896672151096446 -0.0028612771211853605 0.9975920352723142 -0.024187627758360666 0.9952620305272804 -0.01973026125876375 -0.00013597619447484183 -0.002050303053672523
10000000.0 -0.0007130308691545978 -0.003704721189658677 0.9964815669253415 -0.03910180974233035 1.0032876389767278 -0.039365554852194014 -9.290143772675951e-05 -0.004116133540789827
15000000.0 0.00016460507596342513 -0.005665614286750574 1.0003310499054194 -0.059240699338532384 0.9937421083172879 -0.0640482715655449 -0.0005429060637391117 -0.006229152508791251
20000000.0 -0.00012822563944341097 -0.008925859105647619 0.9985894293517437 -0.08531751005652098 0.9996842865503314 -0.0789366968614701 -0.0006948186730460873 -0.008202046900112236
25000000.0 -0.0016559087011078035 -0.010555108306824634 0.991179321251429 -0.10376093755692045 0.9918678735890916 -0.10679204338149885 -0.001329736572168487 -0.010352004926231428
30000000.0 -0.001402654366535517 -0.011618256331409383 0.9919723581560503 -0.11977530770908755 0.9938505294069971 -0.11888249701425832 -0.0017063401065892513 -0.012224501868114334
35000000.0 -0.0010368682723258206 -0.01445029924956357 0.9930199410292867 -0.14398488943742963 0.9887678681978636 -0.14838993755600643 -0.00250177735760196 -0.014382139147604816
40000000.0 -0.002623757197613008 -0.017124383602118414 0.984937852344144 -0.16727160824107512 0.9860297235336287 -0.1593082544757554 -0.0031072788284431897 -0.016154422261608244
45000000.0 -0.0035948708486619628 -0.017956405760661605 0.9798688741953264 -0.18209777113666636 0.984017111796698 -0.18881507502479292 -0.0040472184809607166 -0.018312303338769542
50000000.0 -0.003127592849080755 -0.01983646754667043 0.9812445246811002 -0.20203115138133332 0.9765254119011644 -0.20021294930016179 -0.004907716129648423 -0.01997175486667815
55000000.0 -0.004045489104741782 -0.022973296359204722 0.9758606241078234 -0.22761244864595376 0.9772756081492673 -0.22807889387550656 -0.005960238177743208 -0.022091947135531392
60000000.0 -0.006002395748824157 -0.02443091322763735 0.9658413177525196 -0.24521162039320443 0.9656944294620088 -0.24146805150219883 -0.007087118683944721 -0.02365275360705851
65000000.0 -0.00620011002209498 -0.02538890120323269 0.9640316486612804 -0.26082154158722404 0.9682924198492189 -0.2663620373535688 -0.008245962015645548 -0.025695787872572522
70000000.0 -0.006396698815481071 -0.028144418313394516 0.9617732517123094 -0.2848674937706093 0.9537904950051552 -0.2828301561172329 -0.009643465713701617 -0.027160684929867843
75000000.0 -0.00850702122819177 -0.03054954139411421 0.9505548916135576 -0.3068786777438446 0.9569211032326244 -0.30386701084012374 -0.01087782321362911 -0.029084841106583926
80000000.0 -0.009879635689014352 -0.031191376296300904 0.9431015536104164 -0.32088257758262556 0.9410428691436838 -0.32394011031468495 -0.012535032326758996 -0.030472210390481345
85000000.0 -0.009879652674873358 -0.03296671612947774 0.9416418761141572 -0.3405678710327797 0.9431195910360797 -0.34086350537917165 -0.013843987561657748 -0.032248023407267824
90000000.0 -0.011379156808628794 -0.03586558469280831 0.9327872932114716 -0.3651148105076307 0.9274914538811726 -0.3643624615434036 -0.015756471188769355 -0.033585158303080544
95000000.0 -0.013742484571068794 -0.03702231705927342 0.9202579662921659 -0.381298388692704 0.9270174786137736 -0.3775573948487637 -0.017151656546155254 -0.035148804207607465
100000000.0 -0.014338945086162003 -0.03780573411394872 0.9160382721839985 -0.3962987281030136 0.9130617413571166 -0.4037065270306991 -0.01928264036178511 -0.03645004941606759
105000000.0 -0.015077216256356286 -0.04036310972520795 0.9104753841722354 -0.41964733109837316 0.9088252081680814 -0.41415257014677737 -0.020779270928564155 -0.037762662296251685
110000000.0 -0.017650467718473693 -0.04238777868743255 0.8962979721771211 -0.4399457313689404 0.8975220491670726 -0.44166227411580117 -0.02308361979192357 -0.03905033037852468
115000000.0 -0.019355968415325647 -0.042760827372323236 0.8866771241855099 -0.4527595766633006 0.8888079292321804 -0.4507330341875513 -0.02471160606924582 -0.04007164398565613
120000000.0 -0.01981056820339823 -0.04434799093428237 0.8824195040751467 -0.4717983394470374 0.8805657170724581 -0.4780282832851467 -0.02712640190938388 -0.0413491233046236
125000000.0 -0.021823530011259116 -0.0468847981536698 0.8702913401003405 -0.4948239843344822 0.8673229612015411 -0.48728212011255123 -0.028937945115195082 -0.04207422318175567
130000000.0 -0.024518908177702817 -0.047645827161806854 0.8554852835151296 -0.5091954803149813 0.8618909090201032 -0.512796068940722 -0.031393107097465275 -0.04331142034632694
135000000.0 -0.025451866083685146 -0.04818376529129801 0.8489999745286375 -0.5232677842481063 0.8447038770613666 -0.5236679931726199 -0.03342915976356757 -0.04375016002450399
140000000.0 -0.026668951255021736 -0.05044258663437571 0.8402771892445507 -0.5454448818357738 0.841243099993299 -0.5460593982944367 -0.035860329834302596 -0.04491435969287308
145000000.0 -0.0296291559075445 -0.05202202033830119 0.8234191235556203 -0.5636241606949743 0.8212417917380472 -0.5596519488928053 -0.038161175476591466 -0.04510272520040868
150000000.0 -0.03161042081346975 -0.052049541549339294 0.8118494605861328 -0.5749223770150115 0.8184635418658472 -0.5780330984357046 -0.04052922857401969 -0.04612255046541737
155000000.0 -0.03245418766797688 -0.05335153093639 0.8049286674413979 -0.5929338000290523 0.7971508140296207 -0.59487416890464 -0.04309296446551667 -0.046103420959994285
160000000.0 -0.03489527389051074 -0.055448127870539626 0.7897902036351065 -0.6139984361962484 0.7935394149235246 -0.6089884277012333 -0.04535481312871266 -0.04691464109827395
165000000.0 -0.037839946243576277 -0.05576203445711493 0.7729803849086712 -0.6262271879833679 0.7724883858711012 -0.6289650234101942 -0.04818457569335426 -0.046769353309081274
170000000.0 -0.039058198459363196 -0.055987653834458716 0.7644048370975756 -0.6390471536350033 0.7665661784045391 -0.6391653232454223 -0.0503537649309928 -0.04728239226346921
175000000.0 -0.04068892306999247 -0.05785683859695455 0.7527464269093812 -0.6596076765675756 0.747195313074446 -0.6615418267049028 -0.053391415187283416 -0.047060424828621016
180000000.0 -0.04393671488227669 -0.05890522735090793 0.7335352657663365 -0.6753108283987899 0.7377762008868792 -0.6687672806873993 -0.05548397367218799 -0.047211304855014624
185000000.0 -0.04610593264068328 -0.05854389630217262 0.7202802832360082 -0.6848259127266965 0.7210769887981898 -0.6923127302522979 -0.05866857448825216 -0.046974718325634594
190000000.0 -0.047274245440150894 -0.059498807499455825 0.7108721797814626 -0.7014464828115435 0.707472328056857 -0.6978922028076545 -0.0607459658938703 -0.046714071832367414
195000000.0 -0.05004711635024923 -0.061079129740105334 0.6930429838403558 -0.7201283084410212 0.6938966362102588 -0.7211028174611428 -0.06398700305798144 -0.046482923837817505
200000000.0 -0.05314837639022842 -0.06089318747512875 0.6745763932357564 -0.7299492310786632 0.676020977928277 -0.7265658047540636 -0.06611316550789358 -0.045781850261439425
205000000.0 -0.054574757385793864 -0.06076260348680302 0.6641370156889251 -0.741238094799639 0.6653479259295753 -0.7479158726499208 -0.06930131930908486 -0.045563166947271076
210000000.0 -0.056516669929820865 -0.06216798964275442 0.6498081011039608 -0.7597857419939297 0.6437533503548767 -0.7546521955921439 -0.07155518047136024 -0.044438397875110044
215000000.0 -0.05995049537987371 -0.06265870436648355 0.6286135384694134 -0.7727057260740353 0.6352157378685251 -0.7728219986029651 -0.07459291388469899 -0.04418391347814376
220000000.0 -0.06222121161353979 -0.061869897604393015 0.6139634028931901 -0.7801956490762317 0.6109998920439547 -0.7819312889293014 -0.07703205344890737 -0.04268609890294825
225000000.0 -0.06363315464240739 -0.06242480731556205 0.60232065851622 -0.7950755629897248 0.6033710275564012 -0.7960664120193687 -0.07983312044086131 -0.04233285037873771
230000000.0 -0.06663302643742265 -0.06344396371775103 0.5821841629777521 -0.8110378692119394 0.5779447678151843 -0.8080930247781927 -0.08250144127615973 -0.04054892308088509
235000000.0 -0.0697920087244458 -0.0627350233852488 0.5624092725841022 -0.8182286232698731 0.5697695088331789 -0.8178856821156839 -0.08501328959549044 -0.04000029337029063
240000000.0 -0.07134239658388948 -0.06221035704283752 0.5503711695091356 -0.8277180230849914 0.5446997855867869 -0.8327596738331738 -0.08791280393634002 -0.03803264053679039
245000000.0 -0.07351358858312051 -0.06311668813794666 0.5337172210081474 -0.8439131012934296 0.5345533773303895 -0.8385560860092712 -0.09012690655278015 -0.037183853500799766
250000000.0 -0.07701766795956813 -0.0630161368478082 0.5109689523541561 -0.8538072706020506 0.511198968077007 -0.8556109807668408 -0.09321475543592245 -0.035133250159117
255000000.0 -0.07930657302825474 -0.06178729781624503 0.4952290316110045 -0.8590884351542406 0.49793184312973066 -0.8582888129300418 -0.0951573829253049 -0.03388991556675216
260000000.0 -0.08087320186559127 -0.06189763576275055 0.4816430129937029 -0.8719470200641101 0.47729854068926897 -0.8763737048504546 -0.09835398849241359 -0.0318494061983579
265000000.0 -0.08397750971503458 -0.06233078132999592 0.45961494238465084 -0.8848943417385898 0.4602177674026742 -0.8772182179279575 -0.10008680301311727 -0.030135807951065123
270000000.0 -0.08709296738257286 -0.06110485628508619 0.4389321979317698 -0.8892907117654609 0.44275880155368963 -0.8948973730833847 -0.1032819550770255 -0.028175468801596555
275000000.0 -0.08869095519212981 -0.060173172083564166 0.4255793610309937 -0.8967836885338201 0.42177139696316657 -0.8953648053894886 -0.1049057242075372 -0.02595675996066568
280000000.0 -0.09097655452514587 -0.060545614601311276 0.40697393140790916 -0.910320877785991 0.40733506109469814 -0.9111710222905236 -0.10796783387273538 -0.024094979584508482
285000000.0 -0.09444000444673274 -0.05986231981604784 0.383117436229407 -0.917000898408689 0.382951078079829 -0.9126361957241372 -0.10959030777370478 -0.021376944072597426
290000000.0 -0.09665825678830238 -0.058197664966678546 0.3666299321028893 -0.9199451499066011 0.3708151919436369 -0.9253168490422781 -0.11237935264041511 -0.01958162475734117
295000000.0 -0.09828887203984793 -0.05785821045239937 0.3514344678771733 -0.9305227384697158 0.3440502229865342 -0.9288323022476533 -0.11408845251605594 -0.016433791235908452
300000000.0 -0.10139253517267298 -0.0577047481945091 0.32797562727485474 -0.9402517634632909 0.3330751202582544 -0.9375304273624981 -0.11649892514529621 -0.01464692925841053
305000000.0 -0.10438038773211608 -0.05597280478718628 0.30678414786707087 -0.9417581614346467 0.30530332581847897 -0.9436710839426886 -0.11837426220170359 -0.01116624933984871
310000000.0 -0.1059323634819973 -0.05463154831990962 0.2924269497579876 -0.9470791217889888 0.29410867574134286 -0.9480970815214996 -0.12032092390010742 -0.009276743837309599
315000000.0 -0.10823359639786889 -0.054475097586460755 0.2722867007966512 -0.9577252668018288 0.2667916880711375 -0.9568340237654408 -0.12238922271431557 -0.005600336664178109
320000000.0 -0.11156006661871891 -0.05322866715767319 0.24778665661576468 -0.9610893689469204 0.25401001915765686 -0.9572824419183887 -0.12384978980079724 -0.0034776061957037716
325000000.0 -0.11363437306077169 -0.05114604939573874 0.23090543666680874 -0.9616032985133585 0.22848956536878168 -0.96800003861532 -0.12607584533466637 0.0002477056680895684
330000000.0 -0.11523431024762952 -0.0503511665029499 0.21445294212145724 -0.9697016314933674 0.21302092897870767 -0.9653113506543456 -0.12707409478495504 0.0027105183561250846
335000000.0 -0.11822463869302798 -0.04962305726507996 0.19004130980655642 -0.9760549449315322 0.19025770495539762 -0.9769587298414977 -0.1293893343811544 0.006362364988111699
340000000.0 -0.12098332736490425 -0.047429434757882555 0.16876715705105988 -0.9746349704101163 0.1714341631398132 -0.9723302343502569 -0.13000014111269234 0.009274015610764505
345000000.0 -0.12242470698368026 -0.0456997199353101 0.15374334084725777 -0.9776739300361481 0.1518982340938552 -0.9835675204124189 -0.13227880620719587 0.012740793359632841
350000000.0 -0.12463722864674286 -0.045023678865772084 0.13250179571389425 -0.9852654837756675 0.12959923233935244 -0.9784029136521203 -0.13262614387001012 0.01615546413933049
355000000.0 -0.1277261191743239 -0.04325593546078198 0.10783081556953315 -0.9852635524652801 0.11317412118763637 -0.9878427001603031 -0.13471454385664974 0.019399584406242468
360000000.0 -0.12957594783613696 -0.040797019488748136 0.09089682405928089 -0.9833154458688175 0.0878555408599854 -0.9834444813607891 -0.13492427025224388 0.02331299346545831
365000000.0 -0.1310702346520717 -0.039572815174322325 0.07357676461079592 -0.988795742458718 0.07389973929781164 -0.9898927492149943 -0.13666902673579975 0.026329492801029728
370000000.0 -0.13385114293229822 -0.03831335396403643 0.04870507957811442 -0.9916893805839432 0.04651646351917506 -0.987296376600691 -0.136877787868656 0.030679495110662692
375000000.0 -0.13631610851428053 -0.03570220168789119 0.027754617597411473 -0.9873591159846014 0.033951459739790114 -0.9899442078944586 -0.1381446814370546 0.033536461148659415
380000000.0 -0.1375723196319813 -0.033614465831161906 0.01241249065957203 -0.9880506398992116 0.005783260212007302 -0.989704252893594 -0.13845750406526255 0.03821382204701625
385000000.0 -0.1396111335603461 -0.032455461346894636 -0.009472781738499088 -0.9924855246376831 -0.006670583458853828 -0.9882580863200486 -0.13913877293442267 0.04102494608164147
390000000.0 -0.14238240299749796 -0.03022235172849515 -0.033852692510383454 -0.9891403697659087 -0.034242011888890624 -0.990397978774552 -0.13961102671588885 0.045871247071150624
395000000.0 -0.14395075586998252 -0.027428501985533624 -0.050466880791087236 -0.9847398214327847 -0.04786883957702974 -0.9851139745007338 -0.13965942217318802 0.04876581365472866
400000000.0 -0.14525905689554142 -0.02580262897848495 -0.06826152839262493 -0.9875277220966002 -0.0735687214199213 -0.9890971947799331 -0.1402975222597346 0.05360524711009443
405000000.0 -0.14774871866196512 -0.02406442745318391 -0.0931088079412823 -0.9869607922250138 -0.08943109538537163 -0.9807646837746253 -0.13973558707495692 0.056743214681055386
410000000.0 -0.14985032506809304 -0.021097828301023604 -0.11333602003807455 -0.9797962740000702 -0.11234626483146158 -0.9856124132927669 -0.1404638990424276 0.06140582279803012
415000000.0 -0.15086725168743165 -0.018690094410072286 -0.12865421769414015 -0.9781219067850544 -0.1310717575890477 -0.975353310441102 -0.13937864804005198 0.06489788794343097
420000000.0 -0.15264547160090947 -0.017094672285357455 -0.15072629353590525 -0.9793478986818617 -0.15073446172014315 -0.9798393809169064 -0.14008003629494492 0.06925972234970067
425000000.0 -0.15503160920043246 -0.01446713323489384 -0.17434225540822196 -0.9727404990354278 -0.1724582767665418 -0.9689625199409031 -0.1386023610579999 0.07318708595381951
430000000.0 -0.15627090628644322 -0.011391803332874604 -0.19028646699319454 -0.9659675780289347 -0.18895448871783554 -0.9718041307555136 -0.13911679175770716 0.07716666722317031
435000000.0 -0.1573260844409182 -0.009411476594529254 -0.20816479104565055 -0.9660324857677398 -0.21327060871737474 -0.9615544005423522 -0.13740431475593862 0.08154835235254758
440000000.0 -0.15945512200963963 -0.007260710547686728 -0.23249416529070685 -0.9620612068279852 -0.22718696796383198 -0.9616232001110417 -0.13755526549649907 0.08512132112607326
445000000.0 -0.16114742886973252 -0.004013051440275078 -0.25161677162763996 -0.9521930503303406 -0.25322636770573625 -0.9529823000854072 -0.1357861850509542 0.08990193042920727
450000000.0 -0.16187512966125348 -0.0013324171248547 -0.2665489742849377 -0.9481732505374615 -0.2655425516280783 -0.9495279103285527 -0.13541876050236504 0.09314013141802395
455000000.0 -0.16333431203560134 0.0006438884678884652 -0.28833323972899483 -0.9462304053222093 -0.29211767129829513 -0.9430334027093197 -0.1337141364998167 0.09820297857657613
460000000.0 -0.16528073724362238 0.0035895070952479007 -0.31075051944221244 -0.9365379874619805 -0.3040187444195611 -0.9357780229064568 -0.1327033760796981 0.10120425208624491
465000000.0 -0.1661563416324254 0.006880008539383477 -0.32571463402921996 -0.9275000338548075 -0.3298505627208769 -0.9314823214749312 -0.1311719693761962 0.10637854671982697
470000000.0 -0.1669135934915182 0.009166912851719609 -0.3432753096466734 -0.9248732156818242 -0.34253655847945 -0.9206624605178026 -0.1294548699189707 0.1093077495603033
475000000.0 -0.16862364575411787 0.011663232922824132 -0.3666322174797886 -0.9176234370162176 -0.3664496440695768 -0.9180969141477524 -0.12810779917861304 0.11439869734474621
480000000.0 -0.16987875540025724 0.015123403568070574 -0.3842751192265036 -0.9052258082496336 -0.38089490282999766 -0.9044167314773717 -0.12570788755806514 0.11740286707636523
485000000.0 -0.1702788726345077 0.018020647391047757 -0.3984843167266497 -0.8989537187871004 -0.4020243357199336 -0.90271848205461 -0.12450940999545616 0.12222696388755187
490000000.0 -0.1713669041170939 0.020319425844672084 -0.4195552766496825 -0.8939437385241022 -0.4188451748497678 -0.88721533933254 -0.1215024585267436 0.12547051689296193
495000000.0 -0.17283597063195083 0.02351090438656392 -0.4403682116326349 -0.881345759158143 -0.4367402987074079 -0.8852569933194496 -0.12032491142176084 0.12985963938791328
500000000.0 -0.17331412010015296 0.026953856253751195 -0.4540216505278537 -0.8701961335288675 -0.45608103667721656 -0.8691564282601504 -0.11685788070862022 0.1334369779691899
505000000.0 -0.17373225705006534 0.02948163895164368 -0.47086401259462973 -0.864969272521386 -0.47080710708221113 -0.8657490020281521 -0.11555125460605208 0.13729166090091058
510000000.0 -0.1749887777656963 0.03224275030697193 -0.49280445863768796 -0.8546374660655507 -0.49229548664926404 -0.8502075214113828 -0.11180450805794531 0.14123827701045238
515000000.0 -0.17578882913710658 0.03584959461781297 -0.5086520697679159 -0.8399449056705457 -0.5043763248005616 -0.8443415822752952 -0.1101861616748097 0.14452549386049776
520000000.0 -0.17582957044398215 0.03891136152137821 -0.5218156543147893 -0.8315420806279666 -0.5272412975539607 -0.8302777971893405 -0.10635172625257341 0.14880557421342583
525000000.0 -0.17650547144412285 0.041453500327379794 -0.5417385928573974 -0.8236170951714418 -0.5375693709760981 -0.8212496785103274 -0.10424833800030466 0.15156980724511943
530000000.0 -0.17748447271928383 0.044805862655808125 -0.5605706205081803 -0.8083795459361739 -0.5607275290532358 -0.8091806227517239 -0.10049629808203642 0.15607225893457183
535000000.0 -0.1775648471790196 0.04834901718910975 -0.5726281846468734 -0.7953205422141507 -0.5703932093718845 -0.7967332446469996 -0.09776651043462434 0.1584256772280977
540000000.0 -0.1776054142678346 0.05106611723463318 -0.5883913012799923 -0.7876377038206864 -0.5926724208907755 -0.7867247453730166 -0.09422024302182792 0.1629790765502417
545000000.0 -0.17838307520264385 0.054015021218955184 -0.6085152876269493 -0.7744658332540044 -0.6027678138120247 -0.7710768237174607 -0.09079429429455137 0.16507756910039809
550000000.0 -0.17871878626394905 0.057694223697870056 -0.6222542025607359 -0.7577407369398893 -0.6231150476892494 -0.7627289315605651 -0.08750673333477584 0.16948688705696785
555000000.0 -0.17839196421058967 0.0608639597502171 -0.634075911067095 -0.747379614385333 -0.6345392485257099 -0.744500884746978 -0.08338095101205302 0.17151505713023424
560000000.0 -0.17863499931436505 0.06358787965051567 -0.6524529857876075 -0.7367507777793904 -0.6521295580158235 -0.7370422248996591 -0.08032260981919905 0.17556276186070569
565000000.0 -0.17911464082140321 0.06702804917343243 -0.6689694545127054 -0.7191749026455664 -0.6654591595586694 -0.7172166937454022 -0.07558075195096504 0.177692217665411
