#   Hz   S  RI   R   50
!
0.0 -0.0003631376023021469 -0.0 0.9930352901724969 -0.0 0.9950503144691999 -0.0 -0.001270764525388617 -0.0
5000000.0 -0.00014873146204355113 -0.0022882162277269792 0.9973010692344558 -0.025065777607547336 0.9962271551355162 -0.022311236550769775 -0.0009237044583093696 -0.002513367811019036
10000000.0 -0.00029420006778321176 -0.004026552892818775 0.9957620527005471 -0.03885991446781889 0.9991386359060329 -0.037905239726131364 -0.00018319907783742319 -0.0033255751998615656
15000000.0 -0.00019398120478029084 -0.006061306428233962 1.000513670692176 -0.058485552519460436 1.0010010617539882 -0.06399942464049334 0.000303245301942141 -0.00677372180310947
20000000.0 -0.00045602625782840934 -0.008442350531947463 0.9994869255150066 -0.08558404513722088 0.9929412652385796 -0.08255730163618737 -0.0016890224740856836 -0.008330037822567927
25000000.0 -0.0011155198118652683 -0.010387437710870811 0.9906928609292466 -0.10465716941772704 0.9964991413566399 -0.09982297870915566 -0.000762996885643721 -0.009558007755885655
30000000.0 -0.0013463645030760646 -0.012154939290167107 0.9911347466020783 -0.11919295475359595 0.9932133145605385 -0.12677316179056697 -0.001550841604752296 -0.013199359741407493
35000000.0 -0.0015925487955812242 -0.014396099493825436 0.9937357677557271 -0.1430991769317439 0.9864131989731119 -0.14183152550050415 -0.0032003673368058393 -0.013849571716557658
40000000.0 -0.002417964102360921 -0.016594689332672146 0.9857788320445218 -0.16827497782258047 0.9896108510363004 -0.16263298322691622 -0.002335868146980052 -0.01593729925335206
45000000.0 -0.003149251303735 -0.018271517818873328 0.978676453489421 -0.18273403353807413 0.981271078088459 -0.18755860984597697 -0.004359216016584182 -0.019038705177110996
50000000.0 -0.0035243964076729245 -0.020207811251302596 0.9807396510407408 -0.20070749446466193 0.9771495086649687 -0.2011542508582572 -0.005302719674065026 -0.019293869085652553
55000000.0 -0.004317336492969526 -0.022486009520292304 0.977426885225804 -0.2272961233612867 0.977640460276342 -0.22540641063668668 -0.005092857343654308 -0.02220477584735816
60000000.0 -0.005470217185828603 -0.02429770875848469 0.9657800294955772 -0.24692566914553893 0.9661889837071056 -0.2462513932895973 -0.00785572857828285 -0.02423875076253545
65000000.0 -0.006187332089846579 -0.025923807909628657 0.9623239593043861 -0.2604393223843124 0.9647066250119923 -0.2608509475349234 -0.008110830912522243 -0.02469929056471468
70000000.0 -0.006928608237169468 -0.02803678296645273 0.9624678627302223 -0.28311387760067497 0.9605027121204225 -0.2869588326461399 -0.009046120190043043 -0.0280138768139137
75000000.0 -0.008265195772886216 -0.03006125497637994 0.9522608728910318 -0.3080386079087927 0.9486678772795306 -0.3033058932670791 -0.011846913002719861 -0.02885438395253561
80000000.0 -0.009475136688135268 -0.031534007713404234 0.9415462510365603 -0.32232455191256376 0.9483230963769368 -0.32084953706524794 -0.011775116534771217 -0.030000110845015367
85000000.0 -0.010299889038118234 -0.033285516109603557 0.9404519510170357 -0.3387236616062681 0.9387698554944915 -0.34620944098277995 -0.013985106215591127 -0.033047772258371605
90000000.0 -0.011588875128745334 -0.03537437767212655 0.934995600718329 -0.3642386857079835 0.9288848534546232 -0.3593831239320438 -0.016239358960643862 -0.03305688048223183
95000000.0 -0.013222736955177786 -0.03694550991266242 0.9206064592846238 -0.38377051601997736 0.9272902290466207 -0.38051686250178507 -0.01644556147150959 -0.03502256762832682
100000000.0 -0.014380790137112059 -0.03831892284896892 0.9135070914812751 -0.39613325069027266 0.9134663388309586 -0.40260949953635605 -0.019645473602949323 -0.037167254596074215
105000000.0 -0.015570621783615268 -0.040203504605661224 0.9111353313338217 -0.41706078083835 0.9065352645101674 -0.41500268840142857 -0.021109984662116915 -0.0369230200727999
110000000.0 -0.017371062502909575 -0.041952105075899596 0.8988253133587102 -0.4412441824920723 0.9013219541739725 -0.4388669846696196 -0.022154082415475458 -0.039462112895752764
115000000.0 -0.019009043022289555 -0.043127959861155765 0.8847973483100249 -0.45497103646648845 0.8855713863635155 -0.456300284077624 -0.025732696987562125 -0.0403787647084913
120000000.0 -0.020243560565225104 -0.04460204825496675 0.8805673846360248 -0.4694731242430827 0.880935506452241 -0.47033924828721924 -0.02657072375669425 -0.04046367551070024
125000000.0 -0.021964408642895367 -0.046399698909437 0.8730988787772588 -0.4934089831854787 0.8706666739597495 -0.4947494860933862 -0.02877361607424058 -0.04303421666597387
130000000.0 -0.02402255849000141 -0.04763249756271217 0.8562321552237377 -0.5123711826994337 0.8556831690037154 -0.507854618792237 -0.03206977843477301 -0.04280605754329438
135000000.0 -0.025551354984499387 -0.04866074942183221 0.8456990554101981 -0.5233241886612108 0.8513748324831226 -0.5250564368442869 -0.0327536057797795 -0.04357714350981595
140000000.0 -0.027110973606102994 -0.050233251690291705 0.8408900184725072 -0.5420767000942321 0.8361661804752978 -0.5473462668823675 -0.03605446077904691 -0.04551329761138944
145000000.0 -0.02931534328306808 -0.05164994057961514 0.8267143731023517 -0.5650376772547978 0.8238311463109286 -0.5579615717209334 -0.0386041817571804 -0.044614322658643873
150000000.0 -0.03133250426119722 -0.052435276642915425 0.8096847026372974 -0.577856168484825 0.8173344239327484 -0.5783473947736871 -0.03974097345678275 -0.04603959472210451
155000000.0 -0.032890360086072504 -0.053532244777573255 0.8024509329849181 -0.5901744404040329 0.7989035476523088 -0.5964083051855866 -0.04368767339325222 -0.04684049772113952
160000000.0 -0.03496218190860172 -0.054979059639021756 0.7931424908648571 -0.612074424772713 0.7895506912646699 -0.6070731903933266 -0.04540419180502831 -0.045870435578259997
165000000.0 -0.037377346650658685 -0.05581597239211049 0.7741080146486533 -0.6300416852972673 0.7788187840965386 -0.62914284683842 -0.047447083125384 -0.04758132009502926
170000000.0 -0.039216211057940514 -0.056416714747484956 0.760401007649428 -0.6393245151409591 0.7597594416820441 -0.6423082668054129 -0.051396852129932946 -0.04711496900799255
175000000.0 -0.04106885693513029 -0.057600407374724105 0.7533010817010041 -0.6555240951575059 0.7521342559296365 -0.6551777377864587 -0.05259134919875348 -0.046576612231641216
180000000.0 -0.04359278045732015 -0.05860582104007207 0.7375316199916759 -0.6768138327764035 0.736383756281181 -0.676439286042462 -0.055676319741488955 -0.04795951227853792
185000000.0 -0.04590528145150971 -0.058942124619936156 0.7178736089630157 -0.6884220373484456 0.7191487727612476 -0.6857294572478451 -0.05902878437175388 -0.04649921345804916
190000000.0 -0.04770535390369221 -0.05960011256927483 0.7078177553980696 -0.6983069525768781 0.7109507464141522 -0.7017263283586977 -0.06023975455414875 -0.046597792642687236
195000000.0 -0.05003674725222862 -0.06063474744550266 0.6968758078990904 -0.717734811651124 0.6910516166238867 -0.7196622796000276 -0.06413020399397192 -0.04707860600382127
200000000.0 -0.05272826810721785 -0.06101602172628738 0.6760598836255637 -0.7343271857270754 0.6769300942675707 -0.7273339914396527 -0.06659471087840776 -0.04515874325621742
205000000.0 -0.05479067066980491 -0.0611347178645069 0.6595094362217191 -0.7417303644396241 0.6657576123660616 -0.7458077671086445 -0.06834891383268697 -0.04571298175432112
210000000.0 -0.05682661995680327 -0.06186764960471912 0.6502952755256554 -0.7550658387369054 0.6438752979017859 -0.7589088729853383 -0.07249584988119069 -0.044969920728332224
215000000.0 -0.05958073111070286 -0.062438293587380615 0.6332321181794205 -0.774271940087681 0.6325157470891014 -0.7674147828965592 -0.0741626322648492 -0.04316622024707857
220000000.0 -0.062103079810452724 -0.06227514268585202 0.6113606282820231 -0.7843819659072605 0.6168381691461133 -0.7863734534117054 -0.07677255261148729 -0.043700168760772894
225000000.0 -0.06405249800180429 -0.06244332031873912 0.5987496082461695 -0.7916159322059408 0.5956230833974977 -0.7947207512226133 -0.08055135052640318 -0.04178696608694913
230000000.0 -0.06654416665394702 -0.06303095115355935 0.5864254371247895 -0.808223061993443 0.5852564571316299 -0.8057932451005477 -0.08181737444292576 -0.04047972834817794
235000000.0 -0.06942067739047081 -0.06292657440228386 0.5642165935031691 -0.8230858299511384 0.5649869291309177 -0.8226553543440549 -0.08525124756736566 -0.040426911184470386
240000000.0 -0.07161443057621925 -0.06251949699981861 0.545209612071179 -0.8284139002368968 0.5464659731617002 -0.8278514342029644 -0.0882055165895835 -0.03774019791795663
245000000.0 -0.07374861858393143 -0.06277576972349315 0.534129678661221 -0.8386470402803499 0.5346814891863412 -0.8417450298102476 -0.08960369351883526 -0.03696927452382227
250000000.0 -0.07662617724043227 -0.06287812959109977 0.5161203448309041 -0.855410164018251 0.5113161290465378 -0.8543933277331796 -0.09348310028649642 -0.03587623855793891
255000000.0 -0.07927327248569596 -0.06219503407738834 0.49247796580783276 -0.8637825047615577 0.4960885708883467 -0.8588751689762262 -0.09548907807152308 -0.03297573658281823
260000000.0 -0.08127577320621995 -0.06183255035491212 0.4776246053416315 -0.8682316797766323 0.4807910554257078 -0.874333437034043 -0.09743979867479838 -0.03244630298823727
265000000.0 -0.08381108189242359 -0.06195368719444382 0.4641867776621863 -0.8817139595598001 0.4567922395054165 -0.8819090926903033 -0.1011947147205457 -0.030174012386860585
270000000.0 -0.08677407675751189 -0.061363230722863676 0.44102508228900855 -0.8945362077288374 0.4438830114570056 -0.8879204862220683 -0.10246851992160408 -0.02755242831289634
275000000.0 -0.08901638011183977 -0.06041635349362833 0.4199815785818921 -0.8976671828036695 0.42413834988143045 -0.9026385574983411 -0.1051351037655106 -0.02677684997634962
280000000.0 -0.09113492097343409 -0.06016778347530486 0.4073068842246695 -0.9046073119670087 0.4019678206440249 -0.9059161055281634 -0.10822897300656815 -0.02353731015649835
285000000.0 -0.09403048493612404 -0.05980696459064442 0.38870407528625006 -0.9186148936406756 0.3892695061940957 -0.9146004523296282 -0.10922827238367427 -0.02142653523474012
290000000.0 -0.09670897080109965 -0.05860449117833348 0.36377894027056007 -0.9250563580905664 0.36570856272586866 -0.9261422219223368 -0.11242208211508929 -0.01989813912863768
295000000.0 -0.09867164494378058 -0.05771144590235077 0.3470457512916163 -0.9266188671615633 0.3468228673985346 -0.9271695052412684 -0.11454561334247121 -0.016159868157385893
300000000.0 -0.10115153134091444 -0.05736567052033252 0.3327962388080365 -0.9367676091406321 0.3319882308348577 -0.938129913050241 -0.11573499735313728 -0.014473967994271102
305000000.0 -0.10411485865655888 -0.05629458676021975 0.3091190411775426 -0.9472966904207918 0.30658067768655983 -0.9448841669815512 -0.11901604582274668 -0.011910954523268277
310000000.0 -0.10630751306011868 -0.054808915171489114 0.2864962912396063 -0.948129897665261 0.29092151475353384 -0.946105573333196 -0.12020295559759517 -0.00819783113911624
315000000.0 -0.10831673156154034 -0.054064032097569825 0.2725378995737163 -0.9516686979832469 0.27230373318467704 -0.9576091974500321 -0.12188605551178691 -0.006573289296832535
320000000.0 -0.11113561148483625 -0.05325322013706114 0.25370556233887664 -0.9626904111886201 0.2475775049429223 -0.9594294960570601 -0.12471835312854856 -0.0029911750967852005
325000000.0 -0.11376550724820685 -0.05154981561681118 0.22800213269394212 -0.9670352091380621 0.23362534329782011 -0.9626783574428635 -0.12527899638061074 0.0003181698376039212
330000000.0 -0.11559605836588745 -0.050127057351646076 0.20977654205816845 -0.9656770749022233 0.21097776893440523 -0.9722984728092018 -0.1274624557682135 0.0023408880032123472
335000000.0 -0.11791401242522412 -0.04932189512461878 0.19502738872203948 -0.9723336428576819 0.18902339223874182 -0.9705716427057204 -0.12942910929797916 0.006613629584102541
340000000.0 -0.12076940329751389 -0.04780965308032276 0.17129611616084287 -0.980369256909888 0.17451118752737885 -0.9763537527732135 -0.12981217310322982 0.009424783918149847
345000000.0 -0.12284514778848062 -0.045814365520028454 0.1475859872228929 -0.9788678254200964 0.1490676111281509 -0.9819729817951919 -0.1322144947329088 0.012226229641747537
350000000.0 -0.12464953970899295 -0.04458319476882467 0.1326716656260773 -0.9789736980974154 0.1307216621062166 -0.9789904046367417 -0.13317777651911408 0.01670842747115943
355000000.0 -0.12728935605485836 -0.04335471233486672 0.11397595363192546 -0.9868296822024328 0.11354418243282087 -0.9863264685740242 -0.1337567850375805 0.019212150105041625
360000000.0 -0.12978103488510684 -0.041196690324311266 0.08798681797482341 -0.9889682939126669 0.08757442415472687 -0.9869590919178578 -0.13592952209305117 0.022929652075679735
365000000.0 -0.13141157056085873 -0.039278127538879576 0.06869883203767731 -0.9847173442302171 0.07212314762762287 -0.9849672869872986 -0.1360223538429385 0.027176800948813553
370000000.0 -0.13347769547492483 -0.03804768724154031 0.05377374237345885 -0.9878005439221353 0.05122228063423346 -0.9917820667186027 -0.1369760132577316 0.029730834987080186
375000000.0 -0.1361495418558812 -0.03613466043378041 0.030426633209985208 -0.9931924726632984 0.027128147673278657 -0.9879804367477284 -0.1384712327510335 0.034210400059214385
380000000.0 -0.13803289638658353 -0.03367222969450381 0.006134791392990096 -0.9893601079225185 0.012675710371214545 -0.9882846617192161 -0.1380588834705046 0.03797298185911208
385000000.0 -0.13955979677649796 -0.03198933760738655 -0.009381035321108431 -0.9860669062883063 -0.01154328947837655 -0.9922597421309999 -0.1392838770679435 0.04098143405199581
390000000.0 -0.14193534362114602 -0.030387100929826168 -0.027587760065414538 -0.9906523825463566 -0.032192841020730945 -0.9858436762189488 -0.13981901930254198 0.04585185589296793
395000000.0 -0.14422103444562975 -0.027824136958693912 -0.05334088719803078 -0.9905129447387706 -0.04787868352344286 -0.9883220655998545 -0.13929421993503227 0.049136178803206074
400000000.0 -0.14558212163576945 -0.02544614477985048 -0.07325343037661092 -0.9834597733755183 -0.07370575993175993 -0.9878083401882972 -0.1404657899613742 0.0528398849493925
405000000.0 -0.1473207892584269 -0.023829990019437718 -0.08803788044603 -0.982975296448007 -0.09073469599789027 -0.9811178005434239 -0.14003719112229915 0.057656804718240945
410000000.0 -0.14972474766882854 -0.02157516034606974 -0.1105736422965318 -0.9856349345578842 -0.10935582089639061 -0.9843077352088067 -0.13967651311386817 0.06071076781880137
415000000.0 -0.1513621769258289 -0.01869908811007523 -0.1349486210618884 -0.9795168142232039 -0.1344244022852156 -0.9789787140584205 -0.14038525372331706 0.06510992301404885
420000000.0 -0.15253997141404466 -0.016606829256105574 -0.15070649570115888 -0.9729087820097313 -0.14907155589357485 -0.9739127900289457 -0.1392159065482764 0.06953070098691037
425000000.0 -0.15457592854459726 -0.014687393058769546 -0.16806204681324682 -0.9741823884636208 -0.17106193043224177 -0.9756062400996544 -0.13908183759812942 0.07268959493954989
430000000.0 -0.15659553368730228 -0.011784243461942408 -0.19308581223435045 -0.9717618375226845 -0.19328839359379085 -0.9666039775899439 -0.13899263143619794 0.07756252640529424
435000000.0 -0.1576342772065928 -0.009003782171030593 -0.21318362780510983 -0.9620349780063508 -0.20765003615582572 -0.9638874144055619 -0.13742545789183008 0.08144849870861977
440000000.0 -0.15898246958208492 -0.00705165850362075 -0.2274970981200379 -0.9580498123108862 -0.23203364863404716 -0.962020486542809 -0.13734419699877656 0.0850019980546148
445000000.0 -0.16105471368250754 -0.004526900475598377 -0.2488173465959006 -0.957948044902667 -0.25043721460049706 -0.9514445089010853 -0.1363225953286376 0.08996844292402653
450000000.0 -0.16239799923694218 -0.001302681390763344 -0.2727609886743025 -0.9496216370211895 -0.2665564744060213 -0.9503614838189217 -0.13468455475722585 0.09341143819560022
455000000.0 -0.16318604834199998 0.0011494521939419001 -0.28837701378581015 -0.9398728735031596 -0.29130545538778196 -0.9438650517536616 -0.13434750945787563 0.0974965699069417
460000000.0 -0.16481780025094867 0.0033259701958086277 -0.3045549175987056 -0.9378968021715829 -0.3063250028777501 -0.9339076239704667 -0.13246237493824198 0.10218783641690432
465000000.0 -0.16652284977839937 0.006489273973236741 -0.32840542570263637 -0.9332203813374784 -0.32537735684400126 -0.9326669831925886 -0.1309349500904326 0.10542620544286664
470000000.0 -0.16721126559847738 0.00961387086230939 -0.3482368904137118 -0.921000629168722 -0.34821653380945966 -0.9218661381720178 -0.13001148033655657 0.10995053908881142
475000000.0 -0.168117077702425 0.0118538782050151 -0.36177896109281 -0.9136549279321009 -0.3615027322307877 -0.9139630483155367 -0.12752466514586852 0.11413426818839766
480000000.0 -0.1698095795624869 0.014582154292961386 -0.38149111444062717 -0.9108150260475779 -0.38331834837349177 -0.9104005101270005 -0.12608242209978798 0.11744227585737334
485000000.0 -0.17082279826380312 0.01807777422807633 -0.40452216063138424 -0.9004227680941277 -0.40262084793768305 -0.896880579154137 -0.12436819215834732 0.1221454029895362
490000000.0 -0.1711885834122768 0.020838520646655312 -0.4196517314663975 -0.8877627734437468 -0.41627689026221676 -0.8911451334625569 -0.12158545088159725 0.12577581401106738
495000000.0 -0.1723671017631232 0.02321750862556962 -0.43435061846506995 -0.8826125395929458 -0.43941650325894077 -0.8836218712417861 -0.1200427660004905 0.12935964243390888
500000000.0 -0.1737089046547669 0.0265631566861201 -0.4565753367704165 -0.8757532527060367 -0.45481246049219254 -0.8695629504695451 -0.11748366819890756 0.1339139631617812
505000000.0 -0.17402420903768 0.029954818126010273 -0.4756886329490679 -0.8612696260153213 -0.4705456568610614 -0.8648219330402145 -0.11464511802552252 0.13710668234681653
510000000.0 -0.17445996339846725 0.03242263948422344 -0.4881577629623215 -0.8507772468536285 -0.49285129554573914 -0.8528604813697149 -0.1127466033819625 0.14099757614313063
515000000.0 -0.175733140906696 0.03529073842047573 -0.5059339068342861 -0.845294654909957 -0.5053200590662027 -0.8401748340800869 -0.10947999213784154 0.14512067013619873
520000000.0 -0.1763871210195227 0.03898376988537904 -0.5275964984733398 -0.8329988498816653 -0.5237454418189061 -0.83446709051209 -0.10669343789580896 0.14809364676861397
525000000.0 -0.1763106836137384 0.041981610655320904 -0.5418749504056499 -0.8176991979810108 -0.5432011827627146 -0.818954120192096 -0.10419886836221293 0.1521582572461979
530000000.0 -0.17701106233093394 0.044496866309136185 -0.554815938677427 -0.8095486977460001 -0.5546284373576205 -0.8085349012110923 -0.10047004482382813 0.1557055950389405
535000000.0 -0.17797363348624284 0.047956610626258896 -0.5750218111552421 -0.8006331575573586 -0.5750128950931065 -0.7998900480318154 -0.0976783353351504 0.15866370296437796
540000000.0 -0.17789653978319978 0.05155186986726395 -0.5930057701907702 -0.7841514408044792 -0.5905290746320014 -0.7827203528429422 -0.09446673905068091 0.16266107749320324
545000000.0 -0.1778442154709519 0.054191956658629685 -0.6041291847962379 -0.7707744866869224 -0.6028744328932321 -0.7741262590392963 -0.09052794909051962 0.16563290226323996
550000000.0 -0.178666321960964 0.05712801991912617 -0.6196491537913591 -0.762787039502888 -0.6234696391576583 -0.7614256983059265 -0.08757121717498051 0.16869453362278822
555000000.0 -0.17895533096975502 0.060939301252145014 -0.6395274397993103 -0.7487919563500006 -0.6352831903658891 -0.7446806130550436 -0.08367133068623149 0.17236595544596622
560000000.0 -0.17843752442772565 0.06412017111684996 -0.6526149010922557 -0.7311720131528933 -0.6497867985309037 -0.736382650113942 -0.07969102742034838 0.17488885361553194
